T1F9F8 000:012.541   SEGGER J-Link V7.98c Log File
T1F9F8 000:013.061   DLL Compiled: Aug  7 2024 15:37:06
T1F9F8 000:013.066   Logging started @ 2026-08-19 10:54
T1F9F8 000:013.069   Process: E:\soft\keil_v5\UV4\UV4.exe
T1F9F8 000:013.076 - 13.072ms
T1F9F8 000:013.173 JLINK_SetWarnOutHandler(...)
T1F9F8 000:013.178 - 0.093ms
T1F9F8 000:013.185 JLINK_OpenEx(...)
T1F9F8 000:016.975   Firmware: J-Link OB-RA4M2 compiled Dec 10 2025 15:52:53
T1F9F8 000:018.168   Firmware: J-Link OB-RA4M2 compiled Dec 10 2025 15:52:53
T1F9F8 000:048.331   Hardware: V1.00
T1F9F8 000:048.370   S/N: 1089695894
T1F9F8 000:048.375   OEM: SEGGER
T1F9F8 000:048.382   Feature(s): None
T1F9F8 000:051.144   Bootloader: 2021 May 14
T1F9F8 000:051.722   USB speed mode: Full speed (12 MBit/s)
T1F9F8 000:052.329   TELNET listener socket opened on port 19021
T1F9F8 000:052.415   WEBSRV WEBSRV_Init(): Starting webserver thread(s)
T1F9F8 000:052.839   WEBSRV Webserver running on local port 19080
T1F9F8 000:052.919   Looking for J-Link GUI Server exe at: E:\soft\keil_v5\ARM\Segger\JLinkGUIServer.exe
T1F9F8 000:053.108   Looking for J-Link GUI Server exe at: \JLinkGUIServer.exe
T1F9F8 000:354.725   Failed to connect to J-Link GUI Server.
T1F9F8 000:356.343 - 341.595ms returns "O.K."
T1F9F8 000:356.370 JLINK_GetEmuCaps()
T1F9F8 000:356.378 - 0.004ms returns 0xB8EA5A33
T1F9F8 000:356.384 JLINK_TIF_GetAvailable(...)
T1F9F8 000:358.735 - 2.350ms
T1F9F8 000:358.751 JLINK_SetErrorOutHandler(...)
T1F9F8 000:358.754 - 0.003ms
T1F9F8 000:359.033 JLINK_ExecCommand("ProjectFile = "E:\code\fish-arm\AquaGarden\hardware\ra8p1\demo\usb_light\JLinkSettings.ini"", ...). 
T1F9F8 000:386.607 - 27.574ms returns 0x00
T1F9F8 000:388.248 JLINK_ExecCommand("Device = R7KA8P1KF:CPU0", ...). 
T1F9F8 000:389.016   Flash bank @ 0x02000000: SFL: Parsing sectorization info from ELF file
T1F9F8 000:389.027     FlashDevice.SectorInfo[0]: .SectorSize = 0x00000800, .SectorStartAddr = 0x00000000
T1F9F8 000:389.032   FlashBank @0x02000000: Sectorization info from SFL ELF file ignored because sectorization override from DLL / XML file is active.
T1F9F8 000:389.410   Flash bank @ 0x80000000: SFL: Parsing sectorization info from ELF file
T1F9F8 000:389.419     FlashDevice.SectorInfo[0]: .SectorSize = 0x00010000, .SectorStartAddr = 0x00000000
T1F9F8 000:401.360   Flash bank @ 0x90000000: SFL: Parsing sectorization info from ELF file
T1F9F8 000:401.381     FlashDevice.SectorInfo[0]: .SectorSize = 0x00010000, .SectorStartAddr = 0x00000000
T1F9F8 000:415.545   Device "R7KA8P1KF_CPU0" selected.
T1F9F8 000:415.865 - 27.602ms returns 0x00
T1F9F8 000:415.885 JLINK_ExecCommand("DisableConnectionTimeout", ...). 
T1F9F8 000:415.891   ERROR: Unknown command
T1F9F8 000:415.896 - 0.006ms returns 0x01
T1F9F8 000:415.901 JLINK_GetHardwareVersion()
T1F9F8 000:415.908 - 0.003ms returns 10000
T1F9F8 000:415.912 JLINK_GetDLLVersion()
T1F9F8 000:415.915 - 0.003ms returns 79803
T1F9F8 000:415.919 JLINK_GetOEMString(...)
T1F9F8 000:415.923 JLINK_GetFirmwareString(...)
T1F9F8 000:415.938 - 0.014ms
T1F9F8 000:419.853 JLINK_GetDLLVersion()
T1F9F8 000:419.866 - 0.013ms returns 79803
T1F9F8 000:419.870 JLINK_GetCompileDateTime()
T1F9F8 000:419.873 - 0.003ms
T1F9F8 000:420.989 JLINK_GetFirmwareString(...)
T1F9F8 000:421.002 - 0.012ms
T1F9F8 000:422.247 JLINK_GetHardwareVersion()
T1F9F8 000:422.259 - 0.011ms returns 10000
T1F9F8 000:423.235 JLINK_GetSN()
T1F9F8 000:423.247 - 0.011ms returns 1089695894
T1F9F8 000:424.836 JLINK_GetOEMString(...)
T1F9F8 000:425.985 JLINK_TIF_Select(JLINKARM_TIF_SWD)
T1F9F8 000:429.714 - 3.728ms returns 0x00
T1F9F8 000:429.730 JLINK_HasError()
T1F9F8 000:429.740 JLINK_SetSpeed(5000)
T1F9F8 000:430.020 - 0.281ms
T1F9F8 000:430.034 JLINK_GetId()
T1F9F8 000:433.551   ConfigTargetSettings() start
T1F9F8 000:433.574    J-Link Script File: Executing ConfigTargetSettings()
T1F9F8 000:434.728   Configuring FlashDLNoRMWThreshold=0x200 in order to make sure that option bytes programming is done via read-modify-write
T1F9F8 000:482.792   ConfigTargetSettings() end - Took 47.3ms
T1F9F8 000:484.125   InitTarget() start
T1F9F8 000:484.139    J-Link Script File: Executing InitTarget()
T1F9F8 000:485.525   Identifying target device...
T1F9F8 000:487.432   SWD selected. Executing JTAG -> SWD switching sequence...
T1F9F8 000:489.374   Initializing DAP...
T1F9F8 000:491.369   DAP initialized successfully.
T1F9F8 000:492.799   Determining TrustZone configuration...
T1F9F8 000:494.941     Secure Debug: Enabled (SSD)
T1F9F8 000:496.129   Determining currently configured transfer type by reading the AHB-AP CSW register.
T1F9F8 000:497.949     --> Correct transfer type configured. Done.
T1F9F8 000:499.071   InitTarget() end - Took 13.8ms
T1F9F8 000:500.853   Found SW-DP with ID 0x6BA02477
T1F9F8 000:506.428   DPIDR: 0x6BA02477
T1F9F8 000:507.566   CoreSight SoC-400 or earlier
T1F9F8 000:508.661   Scanning AP map to find all available APs
T1F9F8 000:611.282   AP[2]: Stopped AP scan as end of AP map seems to be reached
T1F9F8 000:615.319   AP[0]: AHB-AP (IDR: 0x84770001)
T1F9F8 000:616.585   AP[1]: APB-AP (IDR: 0x54770002)
T1F9F8 000:617.684   Iterating through AP map to find AHB-AP to use
T1F9F8 000:622.298   AP[0]: Core found
T1F9F8 000:623.623   AP[0]: AHB-AP ROM base: 0xE00FE000
T1F9F8 000:628.517   CPUID register: 0x411FD231. Implementer code: 0x41 (ARM)
T1F9F8 000:630.169   Feature set: Mainline
T1F9F8 000:632.179   Cache: L1 I/D-cache present
T1F9F8 000:634.882   Found Cortex-M85 r1p1, Little endian.
T1F9F8 000:635.422   -- Max. mem block: 0x0001D828
T1F9F8 000:638.187   CPU_ReadMem(4 bytes @ 0xE000EDF0)
T1F9F8 000:638.798   CPU_WriteMem(4 bytes @ 0xE000EDF0)
T1F9F8 000:639.224   CPU_ReadMem(4 bytes @ 0xE0002000)
T1F9F8 000:642.189   FPUnit: 8 code (BP) slots and 0 literal slots
T1F9F8 000:642.209   CPU_ReadMem(4 bytes @ 0xE000EDFC)
T1F9F8 000:642.523   CPU_WriteMem(4 bytes @ 0xE000EDFC)
T1F9F8 000:642.815   CPU_ReadMem(4 bytes @ 0xE0001000)
T1F9F8 000:643.094   CPU_ReadMem(4 bytes @ 0xE0001000)
T1F9F8 000:643.397   CPU_ReadMem(4 bytes @ 0xE0001028)
T1F9F8 000:643.708   CPU_ReadMem(4 bytes @ 0xE0001038)
T1F9F8 000:643.996   CPU_ReadMem(4 bytes @ 0xE0001048)
T1F9F8 000:646.493   CPU_ReadMem(4 bytes @ 0xE0001058)
T1F9F8 000:646.800   CPU_ReadMem(4 bytes @ 0xE0001068)
T1F9F8 000:647.088   CPU_ReadMem(4 bytes @ 0xE0001078)
T1F9F8 000:647.384   CPU_ReadMem(4 bytes @ 0xE0001088)
T1F9F8 000:647.713   CPU_ReadMem(4 bytes @ 0xE0001098)
T1F9F8 000:647.966   CPU_WriteMem(4 bytes @ 0xE0001000)
T1F9F8 000:648.294   CPU_ReadMem(4 bytes @ 0xE000ED88)
T1F9F8 000:648.570   CPU_WriteMem(4 bytes @ 0xE000ED88)
T1F9F8 000:648.992   CPU_ReadMem(4 bytes @ 0xE000ED88)
T1F9F8 000:649.271   CPU_WriteMem(4 bytes @ 0xE000ED88)
T1F9F8 000:649.667   CPU_ReadMem(4 bytes @ 0xE000EFB8)
T1F9F8 000:651.555   Security extension: implemented
T1F9F8 000:653.194   Secure debug: enabled
T1F9F8 000:653.211   CPU_ReadMem(4 bytes @ 0xE000ED74)
T1F9F8 000:654.638   PACBTI extension: implemented
T1F9F8 000:656.638   CoreSight components:
T1F9F8 000:657.817   ROMTbl[0] @ E00FE000
T1F9F8 000:657.836   CPU_ReadMem(64 bytes @ 0xE00FE000)
T1F9F8 000:658.633   CPU_ReadMem(32 bytes @ 0xE00FFFE0)
T1F9F8 000:660.301   [0][0]: E00FF000 CID B105100D PID 000BB4D4 ROM Table
T1F9F8 000:661.432   ROMTbl[1] @ E00FF000
T1F9F8 000:661.447   CPU_ReadMem(64 bytes @ 0xE00FF000)
T1F9F8 000:662.315   CPU_ReadMem(32 bytes @ 0xE000EFE0)
T1F9F8 000:663.152   CPU_ReadMem(4 bytes @ 0xE000EFBC)
T1F9F8 000:663.586   CPU_ReadMem(4 bytes @ 0xE000EFCC)
T1F9F8 000:666.003   [1][0]: E000E000 CID B105900D PID 000BBD23 DEVARCH 47702A04 DEVTYPE 00 ???
T1F9F8 000:666.018   CPU_ReadMem(32 bytes @ 0xE0001FE0)
T1F9F8 000:666.603   CPU_ReadMem(4 bytes @ 0xE0001FBC)
T1F9F8 000:667.016   CPU_ReadMem(4 bytes @ 0xE0001FCC)
T1F9F8 000:668.621   [1][1]: E0001000 CID B105900D PID 000BBD23 DEVARCH 47711A02 DEVTYPE 00 DWT
T1F9F8 000:668.638   CPU_ReadMem(32 bytes @ 0xE0002FE0)
T1F9F8 000:669.179   CPU_ReadMem(4 bytes @ 0xE0002FBC)
T1F9F8 000:669.528   CPU_ReadMem(4 bytes @ 0xE0002FCC)
T1F9F8 000:672.352   [1][2]: E0002000 CID B105900D PID 000BBD23 DEVARCH 47701A03 DEVTYPE 00 FPB
T1F9F8 000:672.372   CPU_ReadMem(32 bytes @ 0xE0000FE0)
T1F9F8 000:672.861   CPU_ReadMem(4 bytes @ 0xE0000FBC)
T1F9F8 000:673.151   CPU_ReadMem(4 bytes @ 0xE0000FCC)
T1F9F8 000:674.655   [1][3]: E0000000 CID B105900D PID 000BBD23 DEVARCH 47701A01 DEVTYPE 43 ITM
T1F9F8 000:674.671   CPU_ReadMem(32 bytes @ 0xE0041FE0)
T1F9F8 000:675.107   CPU_ReadMem(4 bytes @ 0xE0041FBC)
T1F9F8 000:675.452   CPU_ReadMem(4 bytes @ 0xE0041FCC)
T1F9F8 000:677.043   [1][5]: E0041000 CID B105900D PID 004BBD23 DEVARCH 47754A13 DEVTYPE 13 ETM
T1F9F8 000:677.058   CPU_ReadMem(32 bytes @ 0xE0003FE0)
T1F9F8 000:677.643   CPU_ReadMem(4 bytes @ 0xE0003FBC)
T1F9F8 000:677.912   CPU_ReadMem(4 bytes @ 0xE0003FCC)
T1F9F8 000:679.319   [1][6]: E0003000 CID B105900D PID 000BBD23 DEVARCH 47700A06 DEVTYPE 16 ???
T1F9F8 000:679.333   CPU_ReadMem(32 bytes @ 0xE0042FE0)
T1F9F8 000:679.813   CPU_ReadMem(4 bytes @ 0xE0042FBC)
T1F9F8 000:680.137   CPU_ReadMem(4 bytes @ 0xE0042FCC)
T1F9F8 000:681.932   [1][7]: E0042000 CID B105900D PID 000BBD23 DEVARCH 47701A14 DEVTYPE 14 CSS600-CTI
T1F9F8 000:681.948   CPU_ReadMem(32 bytes @ 0xE0040FE0)
T1F9F8 000:683.695   [0][1]: E0040000 CID 05900D00 PID 0BBD23B1 ???
T1F9F8 000:683.711   CPU_WriteMem(4 bytes @ 0xE000ED84)
T1F9F8 000:684.042   CPU_ReadMem(4 bytes @ 0xE000ED80)
T1F9F8 000:685.565   I-Cache L1: 16 KB, 256 Sets, 32 Bytes/Line, 2-Way
T1F9F8 000:685.580   CPU_WriteMem(4 bytes @ 0xE000ED84)
T1F9F8 000:685.894   CPU_ReadMem(4 bytes @ 0xE000ED80)
T1F9F8 000:690.908   D-Cache L1: 16 KB, 128 Sets, 32 Bytes/Line, 4-Way
T1F9F8 000:691.209 - 261.174ms returns 0x6BA02477
T1F9F8 000:691.556 JLINK_GetDLLVersion()
T1F9F8 000:691.585 - 0.028ms returns 79803
T1F9F8 000:691.606 JLINK_CORE_GetFound()
T1F9F8 000:691.609 - 0.003ms returns 0xE0500FF
T1F9F8 000:691.614 JLINK_GetDebugInfo(0x100 = JLINKARM_ROM_TABLE_ADDR_INDEX)
T1F9F8 000:691.617   Value=0xE00FE000
T1F9F8 000:691.622 - 0.009ms returns 0
T1F9F8 000:692.811 JLINK_GetDebugInfo(0x100 = JLINKARM_ROM_TABLE_ADDR_INDEX)
T1F9F8 000:692.823   Value=0xE00FE000
T1F9F8 000:692.828 - 0.017ms returns 0
T1F9F8 000:692.833 JLINK_GetDebugInfo(0x101 = JLINKARM_DEBUG_INFO_ETM_ADDR_INDEX)
T1F9F8 000:692.836   Value=0xE0041000
T1F9F8 000:692.841 - 0.008ms returns 0
T1F9F8 000:692.846 JLINK_ReadMemEx(0xE0041FD0, 0x20 Bytes, Flags = 0x02000004)
T1F9F8 000:694.452   CPU_ReadMem(32 bytes @ 0xE0041FD0)
T1F9F8 000:694.877   Data:  04 00 00 00 00 00 00 00 00 00 00 00 00 00 00 00 ...
T1F9F8 000:694.884 - 2.038ms returns 32 (0x20)
T1F9F8 000:694.890 JLINK_GetDebugInfo(0x102 = JLINKARM_DEBUG_INFO_MTB_ADDR_INDEX)
T1F9F8 000:694.894   Value=0x00000000
T1F9F8 000:694.899 - 0.008ms returns 0
T1F9F8 000:694.903 JLINK_GetDebugInfo(0x103 = JLINKARM_DEBUG_INFO_TPIU_ADDR_INDEX)
T1F9F8 000:694.906   Value=0x00000000
T1F9F8 000:694.911 - 0.008ms returns 0
T1F9F8 000:694.915 JLINK_GetDebugInfo(0x104 = JLINKARM_DEBUG_INFO_ITM_ADDR_INDEX)
T1F9F8 000:694.919   Value=0xE0000000
T1F9F8 000:694.923 - 0.008ms returns 0
T1F9F8 000:694.927 JLINK_GetDebugInfo(0x105 = JLINKARM_DEBUG_INFO_DWT_ADDR_INDEX)
T1F9F8 000:694.931   Value=0xE0001000
T1F9F8 000:694.936 - 0.008ms returns 0
T1F9F8 000:694.940 JLINK_GetDebugInfo(0x106 = JLINKARM_DEBUG_INFO_FPB_ADDR_INDEX)
T1F9F8 000:694.943   Value=0xE0002000
T1F9F8 000:694.948 - 0.008ms returns 0
T1F9F8 000:694.952 JLINK_GetDebugInfo(0x107 = JLINKARM_DEBUG_INFO_NVIC_ADDR_INDEX)
T1F9F8 000:694.955   Value=0xE000E000
T1F9F8 000:694.960 - 0.008ms returns 0
T1F9F8 000:694.964 JLINK_GetDebugInfo(0x10C = JLINKARM_DEBUG_INFO_DBG_ADDR_INDEX)
T1F9F8 000:694.968   Value=0xE000EDF0
T1F9F8 000:694.972 - 0.008ms returns 0
T1F9F8 000:694.976 JLINK_GetDebugInfo(0x01 = Unknown)
T1F9F8 000:694.980   Value=0x00000001
T1F9F8 000:694.984 - 0.008ms returns 0
T1F9F8 000:694.989 JLINK_ReadMemU32(0xE000ED00, 0x1 Items)
T1F9F8 000:694.994   CPU_ReadMem(4 bytes @ 0xE000ED00)
T1F9F8 000:695.265   Data:  31 D2 1F 41
T1F9F8 000:695.271   Debug reg: CPUID
T1F9F8 000:695.276 - 0.287ms returns 1 (0x1)
T1F9F8 000:695.285 JLINK_GetDebugInfo(0x10F = JLINKARM_DEBUG_INFO_HAS_CORTEX_M_SECURITY_EXT_INDEX)
T1F9F8 000:695.289   Value=0x00000001
T1F9F8 000:695.293 - 0.008ms returns 0
T1F9F8 000:695.298 JLINK_ReadMemU32(0xE000EFB8, 0x1 Items)
T1F9F8 000:695.302   CPU_ReadMem(4 bytes @ 0xE000EFB8)
T1F9F8 000:695.562   Data:  FF 00 FF 00
T1F9F8 000:695.568 - 0.270ms returns 1 (0x1)
T1F9F8 000:695.573 JLINK_ReadMemU32(0xE000EDF0, 0x1 Items)
T1F9F8 000:695.577   CPU_ReadMem(4 bytes @ 0xE000EDF0)
T1F9F8 000:695.837   Data:  01 00 11 01
T1F9F8 000:695.843   Debug reg: DHCSR
T1F9F8 000:695.848 - 0.274ms returns 1 (0x1)
T1F9F8 000:695.853 JLINK_ReadMemU32(0xE000EE08, 0x1 Items)
T1F9F8 000:695.857   CPU_ReadMem(4 bytes @ 0xE000EE08)
T1F9F8 000:696.122   Data:  00 00 03 00
T1F9F8 000:696.133   Debug reg: DSCSR
T1F9F8 000:696.138 - 0.285ms returns 1 (0x1)
T1F9F8 000:696.144 JLINK_ReadMemEx(0xE000ED74, 0x4 Bytes, Flags = 0x02000004)
T1F9F8 000:696.151   CPU_ReadMem(4 bytes @ 0xE000ED74)
T1F9F8 000:696.413   Data:  00 00 40 00
T1F9F8 000:696.420 - 0.275ms returns 4 (0x4)
T1F9F8 000:697.693 JLINK_HasError()
T1F9F8 000:697.705 JLINK_SetResetType(JLINKARM_CM3_RESET_TYPE_NORMAL)
T1F9F8 000:697.710 - 0.004ms returns JLINKARM_CM3_RESET_TYPE_NORMAL
T1F9F8 000:697.714 JLINK_Reset()
T1F9F8 000:698.742   ResetTarget() start
T1F9F8 000:698.754    J-Link Script File: Executing ResetTarget()
T1F9F8 000:698.763   CPU_ReadMem(4 bytes @ 0xE000ED44)
T1F9F8 000:699.022   CPU_ReadMem(4 bytes @ 0xE000EE08)
T1F9F8 000:699.330   CPU is running
T1F9F8 000:699.345   CPU_WriteMem(4 bytes @ 0xE000EE08)
T1F9F8 000:699.785   CPU_ReadMem(4 bytes @ 0xE000EE08)
T1F9F8 000:702.039   Reset: ARMv8M core with Security Extension enabled detected. Switch to secure domain.
T1F9F8 000:703.200   Reset: Halt core after reset via DEMCR.VC_CORERESET.
T1F9F8 000:703.217   CPU is running
T1F9F8 000:703.228   CPU_WriteMem(4 bytes @ 0xE000EDF0)
T1F9F8 000:703.532   CPU is running
T1F9F8 000:703.545   CPU_WriteMem(4 bytes @ 0xE000EDFC)
T1F9F8 000:705.248   Reset: Reset device via AIRCR.SYSRESETREQ.
T1F9F8 000:705.265   CPU is running
T1F9F8 000:705.272   CPU_WriteMem(4 bytes @ 0xE000ED0C)
T1F9F8 000:757.852   CPU_ReadMem(4 bytes @ 0xE000EDF0)
T1F9F8 000:758.197   CPU_ReadMem(4 bytes @ 0xE000EDF0)
T1F9F8 000:758.588   CPU is running
T1F9F8 000:758.595   CPU_WriteMem(4 bytes @ 0xE000EDFC)
T1F9F8 000:760.633   ResetTarget() end - Took 60.1ms
T1F9F8 000:764.366   CPU_ReadMem(4 bytes @ 0xE000EE08)
T1F9F8 000:764.686   CPU_WriteMem(4 bytes @ 0xE0002000)
T1F9F8 000:765.025   CPU_ReadMem(4 bytes @ 0xE000EDFC)
T1F9F8 000:765.297   CPU_ReadMem(4 bytes @ 0xE0001000)
T1F9F8 000:765.564   CPU_ReadMem(4 bytes @ 0xE000EE08)
T1F9F8 000:765.834 - 68.119ms
T1F9F8 000:766.186 JLINK_Halt()
T1F9F8 000:766.191 - 0.005ms returns 0x00
T1F9F8 000:766.212 JLINK_ReadMemU32(0xE000EFB8, 0x1 Items)
T1F9F8 000:766.229   CPU_ReadMem(4 bytes @ 0xE000EFB8)
T1F9F8 000:766.515   Data:  FF 00 FF 00
T1F9F8 000:766.522 - 0.311ms returns 1 (0x1)
T1F9F8 000:766.527 JLINK_ReadMemU32(0xE000EDF0, 0x1 Items)
T1F9F8 000:766.532   CPU_ReadMem(4 bytes @ 0xE000EDF0)
T1F9F8 000:766.809   Data:  03 00 13 00
T1F9F8 000:766.815   Debug reg: DHCSR
T1F9F8 000:766.820 - 0.293ms returns 1 (0x1)
T1F9F8 000:766.825 JLINK_ReadMemU32(0xE000EDF0, 0x1 Items)
T1F9F8 000:766.829   CPU_ReadMem(4 bytes @ 0xE000EDF0)
T1F9F8 000:767.060   Data:  03 00 13 00
T1F9F8 000:767.065   Debug reg: DHCSR
T1F9F8 000:767.070 - 0.245ms returns 1 (0x1)
T1F9F8 000:767.075 JLINK_WriteU32_64(0xE000EDF0, 0xA05F0003)
T1F9F8 000:767.078   Debug reg: DHCSR
T1F9F8 000:767.368   CPU_WriteMem(4 bytes @ 0xE000EDF0)
T1F9F8 000:767.710 - 0.634ms returns 0 (0x00000000)
T1F9F8 000:767.716 JLINK_WriteU32_64(0xE000EDFC, 0x01000000)
T1F9F8 000:767.720   Debug reg: DEMCR
T1F9F8 000:767.726   CPU_WriteMem(4 bytes @ 0xE000EDFC)
T1F9F8 000:768.037 - 0.320ms returns 0 (0x00000000)
T1F9F8 000:774.734 JLINK_GetHWStatus(...)
T1F9F8 000:775.120 - 1.900ms returns 0
T1F9F8 000:779.087 JLINK_GetNumBPUnits(Type = 0xFFFFFF00)
T1F9F8 000:779.156 - 0.068ms returns 0x08
T1F9F8 000:779.163 JLINK_GetNumBPUnits(Type = 0xF0)
T1F9F8 000:779.168 - 0.004ms returns 0x2000
T1F9F8 000:779.172 JLINK_GetNumWPUnits()
T1F9F8 000:779.175 - 0.003ms returns 8
T1F9F8 000:782.437 JLINK_GetSpeed()
T1F9F8 000:782.451 - 0.013ms returns 4000
T1F9F8 000:784.509 JLINK_ReadMemU32(0xE000E004, 0x1 Items)
T1F9F8 000:784.537   CPU_ReadMem(4 bytes @ 0xE000E004)
T1F9F8 000:784.838   Data:  02 00 00 00
T1F9F8 000:784.848 - 0.338ms returns 1 (0x1)
T1F9F8 000:784.854 JLINK_ReadMemU32(0xE000E004, 0x1 Items)
T1F9F8 000:784.859   CPU_ReadMem(4 bytes @ 0xE000E004)
T1F9F8 000:785.189   Data:  02 00 00 00
T1F9F8 000:785.205 - 0.350ms returns 1 (0x1)
T1F9F8 000:785.211 JLINK_WriteMemEx(0xE0001000, 0x0000001C Bytes, Flags = 0x02000004)
T1F9F8 000:785.215   Data:  01 00 00 00 00 00 00 00 00 00 00 00 00 00 00 00 ...
T1F9F8 000:785.225   CPU_WriteMem(28 bytes @ 0xE0001000)
T1F9F8 000:785.668 - 0.456ms returns 0x1C
T1F9F8 000:785.685 JLINK_Halt()
T1F9F8 000:785.689 - 0.003ms returns 0x00
T1F9F8 000:785.693 JLINK_IsHalted()
T1F9F8 000:785.698 - 0.004ms returns TRUE
T1F9F8 000:790.285 JLINK_WriteMem(0x22000000, 0x1300 Bytes, ...)
T1F9F8 000:790.293   Data:  00 BE 0A E0 0D 78 2D 06 68 40 08 24 40 00 00 D3 ...
T1F9F8 000:790.553   CPU_WriteMem(4864 bytes @ 0x22000000)
T1F9F8 000:816.864 - 26.579ms returns 0x1300
T1F9F8 000:816.920 JLINK_HasError()
T1F9F8 000:816.941 JLINK_WriteReg(R0, 0x02000000)
T1F9F8 000:816.950   CPU_ReadMem(4 bytes @ 0xE000EE08)
T1F9F8 000:817.425 - 0.497ms returns 0
T1F9F8 000:817.445 JLINK_WriteReg(R1, 0x00B71B00)
T1F9F8 000:817.451 - 0.006ms returns 0
T1F9F8 000:817.456 JLINK_WriteReg(R2, 0x00000001)
T1F9F8 000:817.459 - 0.003ms returns 0
T1F9F8 000:817.779 JLINK_WriteReg(R3, 0x00000000)
T1F9F8 000:817.792 - 0.013ms returns 0
T1F9F8 000:817.797 JLINK_WriteReg(R4, 0x00000000)
T1F9F8 000:817.801 - 0.003ms returns 0
T1F9F8 000:817.805 JLINK_WriteReg(R5, 0x00000000)
T1F9F8 000:817.808 - 0.003ms returns 0
T1F9F8 000:817.812 JLINK_WriteReg(R6, 0x00000000)
T1F9F8 000:817.816 - 0.003ms returns 0
T1F9F8 000:817.819 JLINK_WriteReg(R7, 0x00000000)
T1F9F8 000:817.823 - 0.003ms returns 0
T1F9F8 000:819.452 JLINK_WriteReg(R8, 0x00000000)
T1F9F8 000:819.472 - 1.644ms returns 0
T1F9F8 000:819.478 JLINK_WriteReg(R9, 0x22001268)
T1F9F8 000:819.481 - 0.003ms returns 0
T1F9F8 000:819.485 JLINK_WriteReg(R10, 0x00000000)
T1F9F8 000:819.489 - 0.003ms returns 0
T1F9F8 000:819.493 JLINK_WriteReg(R11, 0x00000000)
T1F9F8 000:819.501 - 0.007ms returns 0
T1F9F8 000:819.505 JLINK_WriteReg(R12, 0x00000000)
T1F9F8 000:819.508 - 0.003ms returns 0
T1F9F8 000:819.512 JLINK_WriteReg(R13 (SP), 0x22007800)
T1F9F8 000:819.517 - 0.004ms returns 0
T1F9F8 000:819.520 JLINK_WriteReg(R14, 0x22000001)
T1F9F8 000:819.524 - 0.003ms returns 0
T1F9F8 000:819.532 JLINK_WriteReg(R15 (PC), 0x22000640)
T1F9F8 000:819.536 - 0.008ms returns 0
T1F9F8 000:819.540 JLINK_WriteReg(XPSR, 0x01000000)
T1F9F8 000:819.543 - 0.003ms returns 0
T1F9F8 000:819.547 JLINK_WriteReg(MSP, 0x22007800)
T1F9F8 000:819.551 - 0.004ms returns 0
T1F9F8 000:819.555 JLINK_WriteReg(PSP, 0x22007800)
T1F9F8 000:819.558 - 0.003ms returns 0
T1F9F8 000:819.562 JLINK_WriteReg(CFBP, 0x00000000)
T1F9F8 000:819.566 - 0.003ms returns 0
T1F9F8 000:819.570 JLINK_SetBPEx(Addr = 0x22000000, Type = 0xFFFFFFF2)
T1F9F8 000:819.574 - 0.004ms returns 0x00000001
T1F9F8 000:819.579 JLINK_Go()
T1F9F8 000:819.588   CPU_WriteMem(4 bytes @ 0xE0002000)
T1F9F8 000:820.208   CPU_ReadMem(4 bytes @ 0xE0001000)
T1F9F8 000:820.746   CPU_WriteMem(4 bytes @ 0xE0002008)
T1F9F8 000:820.759   CPU_WriteMem(4 bytes @ 0xE000200C)
T1F9F8 000:820.764   CPU_WriteMem(4 bytes @ 0xE0002010)
T1F9F8 000:820.768   CPU_WriteMem(4 bytes @ 0xE0002014)
T1F9F8 000:820.772   CPU_WriteMem(4 bytes @ 0xE0002018)
T1F9F8 000:820.776   CPU_WriteMem(4 bytes @ 0xE000201C)
T1F9F8 000:820.781   CPU_WriteMem(4 bytes @ 0xE0002020)
T1F9F8 000:820.785   CPU_WriteMem(4 bytes @ 0xE0002024)
T1F9F8 000:822.506   CPU_WriteMem(4 bytes @ 0xE0001004)
T1F9F8 000:827.617   Memory map 'after startup completion point' is active
T1F9F8 000:827.638 - 8.059ms
T1F9F8 000:827.644 JLINK_IsHalted()
T1F9F8 000:831.454 - 3.807ms returns TRUE
T1F9F8 000:831.484 JLINK_ReadReg(R15 (PC))
T1F9F8 000:831.491   CPU_ReadMem(4 bytes @ 0xE000EE08)
T1F9F8 000:831.905 - 0.420ms returns 0x22000000
T1F9F8 000:831.926 JLINK_ClrBPEx(BPHandle = 0x00000001)
T1F9F8 000:831.931 - 0.005ms returns 0x00
T1F9F8 000:831.935 JLINK_ReadReg(R0)
T1F9F8 000:831.940 - 0.004ms returns 0x00000000
T1F9F8 000:835.642 JLINK_HasError()
T1F9F8 000:835.654 JLINK_WriteReg(R0, 0x02000000)
T1F9F8 000:835.661 - 0.006ms returns 0
T1F9F8 000:835.665 JLINK_WriteReg(R1, 0x00008000)
T1F9F8 000:835.669 - 0.003ms returns 0
T1F9F8 000:835.673 JLINK_WriteReg(R2, 0x000000FF)
T1F9F8 000:835.676 - 0.003ms returns 0
T1F9F8 000:835.680 JLINK_WriteReg(R3, 0x00000000)
T1F9F8 000:835.683 - 0.003ms returns 0
T1F9F8 000:835.687 JLINK_WriteReg(R4, 0x00000000)
T1F9F8 000:835.691 - 0.003ms returns 0
T1F9F8 000:835.695 JLINK_WriteReg(R5, 0x00000000)
T1F9F8 000:835.698 - 0.003ms returns 0
T1F9F8 000:835.702 JLINK_WriteReg(R6, 0x00000000)
T1F9F8 000:835.706 - 0.003ms returns 0
T1F9F8 000:835.709 JLINK_WriteReg(R7, 0x00000000)
T1F9F8 000:835.713 - 0.003ms returns 0
T1F9F8 000:835.717 JLINK_WriteReg(R8, 0x00000000)
T1F9F8 000:835.720 - 0.003ms returns 0
T1F9F8 000:835.724 JLINK_WriteReg(R9, 0x22001268)
T1F9F8 000:835.727 - 0.003ms returns 0
T1F9F8 000:835.731 JLINK_WriteReg(R10, 0x00000000)
T1F9F8 000:835.735 - 0.003ms returns 0
T1F9F8 000:835.738 JLINK_WriteReg(R11, 0x00000000)
T1F9F8 000:835.742 - 0.003ms returns 0
T1F9F8 000:835.745 JLINK_WriteReg(R12, 0x00000000)
T1F9F8 000:835.749 - 0.003ms returns 0
T1F9F8 000:835.753 JLINK_WriteReg(R13 (SP), 0x22007800)
T1F9F8 000:835.757 - 0.004ms returns 0
T1F9F8 000:835.761 JLINK_WriteReg(R14, 0x22000001)
T1F9F8 000:835.764 - 0.003ms returns 0
T1F9F8 000:835.768 JLINK_WriteReg(R15 (PC), 0x220000C8)
T1F9F8 000:835.771 - 0.003ms returns 0
T1F9F8 000:835.775 JLINK_WriteReg(XPSR, 0x01000000)
T1F9F8 000:835.779 - 0.003ms returns 0
T1F9F8 000:835.783 JLINK_WriteReg(MSP, 0x22007800)
T1F9F8 000:835.786 - 0.003ms returns 0
T1F9F8 000:835.790 JLINK_WriteReg(PSP, 0x22007800)
T1F9F8 000:835.803 - 0.012ms returns 0
T1F9F8 000:835.807 JLINK_WriteReg(CFBP, 0x00000000)
T1F9F8 000:835.810 - 0.003ms returns 0
T1F9F8 000:835.815 JLINK_SetBPEx(Addr = 0x22000000, Type = 0xFFFFFFF2)
T1F9F8 000:835.819 - 0.004ms returns 0x00000002
T1F9F8 000:835.823 JLINK_Go()
T1F9F8 000:835.828   CPU_WriteMem(4 bytes @ 0xE0002000)
T1F9F8 000:836.251   CPU_ReadMem(4 bytes @ 0xE0001000)
T1F9F8 000:839.514 - 3.690ms
T1F9F8 000:839.532 JLINK_IsHalted()
T1F9F8 000:843.363 - 3.830ms returns TRUE
T1F9F8 000:843.377 JLINK_ReadReg(R15 (PC))
T1F9F8 000:843.385   CPU_ReadMem(4 bytes @ 0xE000EE08)
T1F9F8 000:843.843 - 0.464ms returns 0x22000000
T1F9F8 000:843.889 JLINK_ClrBPEx(BPHandle = 0x00000002)
T1F9F8 000:843.893 - 0.004ms returns 0x00
T1F9F8 000:844.221 JLINK_ReadReg(R0)
T1F9F8 000:844.237 - 0.016ms returns 0x00000001
T1F9F8 000:844.243 JLINK_HasError()
T1F9F8 000:844.248 JLINK_WriteReg(R0, 0x02000000)
T1F9F8 000:844.252 - 0.004ms returns 0
T1F9F8 000:844.256 JLINK_WriteReg(R1, 0x00008000)
T1F9F8 000:844.260 - 0.003ms returns 0
T1F9F8 000:844.264 JLINK_WriteReg(R2, 0x000000FF)
T1F9F8 000:844.267 - 0.003ms returns 0
T1F9F8 000:844.271 JLINK_WriteReg(R3, 0x00000000)
T1F9F8 000:844.275 - 0.003ms returns 0
T1F9F8 000:844.279 JLINK_WriteReg(R4, 0x00000000)
T1F9F8 000:844.282 - 0.003ms returns 0
T1F9F8 000:844.286 JLINK_WriteReg(R5, 0x00000000)
T1F9F8 000:844.290 - 0.003ms returns 0
T1F9F8 000:844.294 JLINK_WriteReg(R6, 0x00000000)
T1F9F8 000:844.297 - 0.003ms returns 0
T1F9F8 000:844.301 JLINK_WriteReg(R7, 0x00000000)
T1F9F8 000:844.305 - 0.003ms returns 0
T1F9F8 000:844.309 JLINK_WriteReg(R8, 0x00000000)
T1F9F8 000:844.312 - 0.003ms returns 0
T1F9F8 000:844.316 JLINK_WriteReg(R9, 0x22001268)
T1F9F8 000:844.319 - 0.003ms returns 0
T1F9F8 000:844.328 JLINK_WriteReg(R10, 0x00000000)
T1F9F8 000:844.333 - 0.005ms returns 0
T1F9F8 000:844.337 JLINK_WriteReg(R11, 0x00000000)
T1F9F8 000:844.340 - 0.003ms returns 0
T1F9F8 000:844.344 JLINK_WriteReg(R12, 0x00000000)
T1F9F8 000:844.348 - 0.003ms returns 0
T1F9F8 000:844.351 JLINK_WriteReg(R13 (SP), 0x22007800)
T1F9F8 000:844.356 - 0.004ms returns 0
T1F9F8 000:844.359 JLINK_WriteReg(R14, 0x22000001)
T1F9F8 000:844.363 - 0.003ms returns 0
T1F9F8 000:844.367 JLINK_WriteReg(R15 (PC), 0x22000298)
T1F9F8 000:844.371 - 0.003ms returns 0
T1F9F8 000:844.374 JLINK_WriteReg(XPSR, 0x01000000)
T1F9F8 000:844.378 - 0.003ms returns 0
T1F9F8 000:844.382 JLINK_WriteReg(MSP, 0x22007800)
T1F9F8 000:844.407 - 0.025ms returns 0
T1F9F8 000:844.411 JLINK_WriteReg(PSP, 0x22007800)
T1F9F8 000:844.415 - 0.003ms returns 0
T1F9F8 000:844.419 JLINK_WriteReg(CFBP, 0x00000000)
T1F9F8 000:844.422 - 0.003ms returns 0
T1F9F8 000:844.427 JLINK_SetBPEx(Addr = 0x22000000, Type = 0xFFFFFFF2)
T1F9F8 000:844.431 - 0.004ms returns 0x00000003
T1F9F8 000:844.435 JLINK_Go()
T1F9F8 000:844.441   CPU_WriteMem(4 bytes @ 0xE0002000)
T1F9F8 000:844.828   CPU_ReadMem(4 bytes @ 0xE0001000)
T1F9F8 000:848.111 - 3.673ms
T1F9F8 000:848.168 JLINK_IsHalted()
T1F9F8 000:848.434 - 0.265ms returns FALSE
T1F9F8 000:848.440 JLINK_HasError()
T1F9F8 000:858.395 JLINK_IsHalted()
T1F9F8 000:858.735 - 0.339ms returns FALSE
T1F9F8 000:858.743 JLINK_HasError()
T1F9F8 000:860.443 JLINK_IsHalted()
T1F9F8 000:860.864 - 0.421ms returns FALSE
T1F9F8 000:860.870 JLINK_HasError()
T1F9F8 000:862.379 JLINK_IsHalted()
T1F9F8 000:862.707 - 0.327ms returns FALSE
T1F9F8 000:862.713 JLINK_HasError()
T1F9F8 000:864.426 JLINK_IsHalted()
T1F9F8 000:864.823 - 0.395ms returns FALSE
T1F9F8 000:864.860 JLINK_HasError()
T1F9F8 000:866.469 JLINK_IsHalted()
T1F9F8 000:866.811 - 0.343ms returns FALSE
T1F9F8 000:866.819 JLINK_HasError()
T1F9F8 000:868.721 JLINK_IsHalted()
T1F9F8 000:869.024 - 0.302ms returns FALSE
T1F9F8 000:869.031 JLINK_HasError()
T1F9F8 000:870.391 JLINK_IsHalted()
T1F9F8 000:870.720 - 0.328ms returns FALSE
T1F9F8 000:870.733 JLINK_HasError()
T1F9F8 000:872.388 JLINK_IsHalted()
T1F9F8 000:872.690 - 0.301ms returns FALSE
T1F9F8 000:872.704 JLINK_HasError()
T1F9F8 000:874.559 JLINK_IsHalted()
T1F9F8 000:875.008 - 0.450ms returns FALSE
T1F9F8 000:875.019 JLINK_HasError()
T1F9F8 000:876.547 JLINK_IsHalted()
T1F9F8 000:877.070 - 0.524ms returns FALSE
T1F9F8 000:877.084 JLINK_HasError()
T1F9F8 000:878.485 JLINK_IsHalted()
T1F9F8 000:879.008 - 0.522ms returns FALSE
T1F9F8 000:879.024 JLINK_HasError()
T1F9F8 000:880.382 JLINK_IsHalted()
T1F9F8 000:880.716 - 0.333ms returns FALSE
T1F9F8 000:880.729 JLINK_HasError()
T1F9F8 000:882.408 JLINK_IsHalted()
T1F9F8 000:882.715 - 0.306ms returns FALSE
T1F9F8 000:882.728 JLINK_HasError()
T1F9F8 000:884.381 JLINK_IsHalted()
T1F9F8 000:884.716 - 0.333ms returns FALSE
T1F9F8 000:884.723 JLINK_HasError()
T1F9F8 000:886.417 JLINK_IsHalted()
T1F9F8 000:886.714 - 0.297ms returns FALSE
T1F9F8 000:886.730 JLINK_HasError()
T1F9F8 000:888.519 JLINK_IsHalted()
T1F9F8 000:888.985 - 0.467ms returns FALSE
T1F9F8 000:888.994 JLINK_HasError()
T1F9F8 000:890.447 JLINK_IsHalted()
T1F9F8 000:890.885 - 0.437ms returns FALSE
T1F9F8 000:890.891 JLINK_HasError()
T1F9F8 000:892.523 JLINK_IsHalted()
T1F9F8 000:893.000 - 0.477ms returns FALSE
T1F9F8 000:893.015 JLINK_HasError()
T1F9F8 000:894.519 JLINK_IsHalted()
T1F9F8 000:894.960 - 0.441ms returns FALSE
T1F9F8 000:894.966 JLINK_HasError()
T1F9F8 000:896.448 JLINK_IsHalted()
T1F9F8 000:896.809 - 0.362ms returns FALSE
T1F9F8 000:896.815 JLINK_HasError()
T1F9F8 000:898.463 JLINK_IsHalted()
T1F9F8 000:898.932 - 0.469ms returns FALSE
T1F9F8 000:898.951 JLINK_HasError()
T1F9F8 000:900.523 JLINK_IsHalted()
T1F9F8 000:901.025 - 0.503ms returns FALSE
T1F9F8 000:901.063 JLINK_HasError()
T1F9F8 000:902.471 JLINK_IsHalted()
T1F9F8 000:902.814 - 0.343ms returns FALSE
T1F9F8 000:902.821 JLINK_HasError()
T1F9F8 000:904.450 JLINK_IsHalted()
T1F9F8 000:904.808 - 0.357ms returns FALSE
T1F9F8 000:904.819 JLINK_HasError()
T1F9F8 000:906.489 JLINK_IsHalted()
T1F9F8 000:906.871 - 0.383ms returns FALSE
T1F9F8 000:906.878 JLINK_HasError()
T1F9F8 000:908.498 JLINK_IsHalted()
T1F9F8 000:908.761 - 0.262ms returns FALSE
T1F9F8 000:908.767 JLINK_HasError()
T1F9F8 000:910.422 JLINK_IsHalted()
T1F9F8 000:910.766 - 0.343ms returns FALSE
T1F9F8 000:910.774 JLINK_HasError()
T1F9F8 000:912.441 JLINK_IsHalted()
T1F9F8 000:912.802 - 0.359ms returns FALSE
T1F9F8 000:912.816 JLINK_HasError()
T1F9F8 000:914.465 JLINK_IsHalted()
T1F9F8 000:914.795 - 0.330ms returns FALSE
T1F9F8 000:914.809 JLINK_HasError()
T1F9F8 000:916.611 JLINK_IsHalted()
T1F9F8 000:917.033 - 0.423ms returns FALSE
T1F9F8 000:917.047 JLINK_HasError()
T1F9F8 000:918.529 JLINK_IsHalted()
T1F9F8 000:918.986 - 0.456ms returns FALSE
T1F9F8 000:919.000 JLINK_HasError()
T1F9F8 000:920.492 JLINK_IsHalted()
T1F9F8 000:920.880 - 0.389ms returns FALSE
T1F9F8 000:920.894 JLINK_HasError()
T1F9F8 000:922.506 JLINK_IsHalted()
T1F9F8 000:922.841 - 0.334ms returns FALSE
T1F9F8 000:922.854 JLINK_HasError()
T1F9F8 000:924.474 JLINK_IsHalted()
T1F9F8 000:924.832 - 0.358ms returns FALSE
T1F9F8 000:924.840 JLINK_HasError()
T1F9F8 000:926.440 JLINK_IsHalted()
T1F9F8 000:926.714 - 0.275ms returns FALSE
T1F9F8 000:926.722 JLINK_HasError()
T1F9F8 000:928.392 JLINK_IsHalted()
T1F9F8 000:928.719 - 0.326ms returns FALSE
T1F9F8 000:928.725 JLINK_HasError()
T1F9F8 000:930.397 JLINK_IsHalted()
T1F9F8 000:930.868 - 0.470ms returns FALSE
T1F9F8 000:930.882 JLINK_HasError()
T1F9F8 000:932.384 JLINK_IsHalted()
T1F9F8 000:932.720 - 0.335ms returns FALSE
T1F9F8 000:932.732 JLINK_HasError()
T1F9F8 000:937.426 JLINK_IsHalted()
T1F9F8 000:937.717 - 0.293ms returns FALSE
T1F9F8 000:937.726 JLINK_HasError()
T1F9F8 000:939.417 JLINK_IsHalted()
T1F9F8 000:939.730 - 0.312ms returns FALSE
T1F9F8 000:939.736 JLINK_HasError()
T1F9F8 000:941.384 JLINK_IsHalted()
T1F9F8 000:941.736 - 0.351ms returns FALSE
T1F9F8 000:941.743 JLINK_HasError()
T1F9F8 000:943.510 JLINK_IsHalted()
T1F9F8 000:943.957 - 0.447ms returns FALSE
T1F9F8 000:943.974 JLINK_HasError()
T1F9F8 000:945.453 JLINK_IsHalted()
T1F9F8 000:945.863 - 0.410ms returns FALSE
T1F9F8 000:945.869 JLINK_HasError()
T1F9F8 000:947.386 JLINK_IsHalted()
T1F9F8 000:947.718 - 0.331ms returns FALSE
T1F9F8 000:947.733 JLINK_HasError()
T1F9F8 000:949.496 JLINK_IsHalted()
T1F9F8 000:949.868 - 0.372ms returns FALSE
T1F9F8 000:949.882 JLINK_HasError()
T1F9F8 000:951.430 JLINK_IsHalted()
T1F9F8 000:951.714 - 0.283ms returns FALSE
T1F9F8 000:951.725 JLINK_HasError()
T1F9F8 000:953.438 JLINK_IsHalted()
T1F9F8 000:953.811 - 0.374ms returns FALSE
T1F9F8 000:953.819 JLINK_HasError()
T1F9F8 000:955.519 JLINK_IsHalted()
T1F9F8 000:955.796 - 0.276ms returns FALSE
T1F9F8 000:955.810 JLINK_HasError()
T1F9F8 000:957.518 JLINK_IsHalted()
T1F9F8 000:957.865 - 0.346ms returns FALSE
T1F9F8 000:957.871 JLINK_HasError()
T1F9F8 000:959.516 JLINK_IsHalted()
T1F9F8 000:959.770 - 0.254ms returns FALSE
T1F9F8 000:959.782 JLINK_HasError()
T1F9F8 000:961.524 JLINK_IsHalted()
T1F9F8 000:961.856 - 0.332ms returns FALSE
T1F9F8 000:961.864 JLINK_HasError()
T1F9F8 000:963.457 JLINK_IsHalted()
T1F9F8 000:963.719 - 0.261ms returns FALSE
T1F9F8 000:963.735 JLINK_HasError()
T1F9F8 000:966.538 JLINK_IsHalted()
T1F9F8 000:966.974 - 0.434ms returns FALSE
T1F9F8 000:966.993 JLINK_HasError()
T1F9F8 000:968.506 JLINK_IsHalted()
T1F9F8 000:968.811 - 0.305ms returns FALSE
T1F9F8 000:968.818 JLINK_HasError()
T1F9F8 000:970.547 JLINK_IsHalted()
T1F9F8 000:970.856 - 0.310ms returns FALSE
T1F9F8 000:970.867 JLINK_HasError()
T1F9F8 000:972.555 JLINK_IsHalted()
T1F9F8 000:972.879 - 0.325ms returns FALSE
T1F9F8 000:972.886 JLINK_HasError()
T1F9F8 000:974.465 JLINK_IsHalted()
T1F9F8 000:974.737 - 0.271ms returns FALSE
T1F9F8 000:974.749 JLINK_HasError()
T1F9F8 000:976.512 JLINK_IsHalted()
T1F9F8 000:976.896 - 0.384ms returns FALSE
T1F9F8 000:976.902 JLINK_HasError()
T1F9F8 000:978.521 JLINK_IsHalted()
T1F9F8 000:978.898 - 0.377ms returns FALSE
T1F9F8 000:978.906 JLINK_HasError()
T1F9F8 000:980.543 JLINK_IsHalted()
T1F9F8 000:980.884 - 0.341ms returns FALSE
T1F9F8 000:980.892 JLINK_HasError()
T1F9F8 000:982.457 JLINK_IsHalted()
T1F9F8 000:982.836 - 0.378ms returns FALSE
T1F9F8 000:982.850 JLINK_HasError()
T1F9F8 000:984.501 JLINK_IsHalted()
T1F9F8 000:984.780 - 0.279ms returns FALSE
T1F9F8 000:984.787 JLINK_HasError()
T1F9F8 000:986.455 JLINK_IsHalted()
T1F9F8 000:986.815 - 0.359ms returns FALSE
T1F9F8 000:986.823 JLINK_HasError()
T1F9F8 000:988.525 JLINK_IsHalted()
T1F9F8 000:988.811 - 0.286ms returns FALSE
T1F9F8 000:988.819 JLINK_HasError()
T1F9F8 000:990.501 JLINK_IsHalted()
T1F9F8 000:990.888 - 0.383ms returns FALSE
T1F9F8 000:990.917 JLINK_HasError()
T1F9F8 000:992.570 JLINK_IsHalted()
T1F9F8 000:992.950 - 0.380ms returns FALSE
T1F9F8 000:992.966 JLINK_HasError()
T1F9F8 000:994.698 JLINK_IsHalted()
T1F9F8 000:995.091 - 0.393ms returns FALSE
T1F9F8 000:995.106 JLINK_HasError()
T1F9F8 000:996.450 JLINK_IsHalted()
T1F9F8 000:996.764 - 0.313ms returns FALSE
T1F9F8 000:996.777 JLINK_HasError()
T1F9F8 000:998.537 JLINK_IsHalted()
T1F9F8 001:000.666 - 2.128ms returns FALSE
T1F9F8 001:000.681 JLINK_HasError()
T1F9F8 001:002.508 JLINK_IsHalted()
T1F9F8 001:002.863 - 0.355ms returns FALSE
T1F9F8 001:002.876 JLINK_HasError()
T1F9F8 001:004.527 JLINK_IsHalted()
T1F9F8 001:004.857 - 0.329ms returns FALSE
T1F9F8 001:004.871 JLINK_HasError()
T1F9F8 001:006.669 JLINK_IsHalted()
T1F9F8 001:006.973 - 0.303ms returns FALSE
T1F9F8 001:006.987 JLINK_HasError()
T1F9F8 001:008.447 JLINK_IsHalted()
T1F9F8 001:008.787 - 0.340ms returns FALSE
T1F9F8 001:008.800 JLINK_HasError()
T1F9F8 001:010.453 JLINK_IsHalted()
T1F9F8 001:010.822 - 0.368ms returns FALSE
T1F9F8 001:010.837 JLINK_HasError()
T1F9F8 001:012.514 JLINK_IsHalted()
T1F9F8 001:012.876 - 0.363ms returns FALSE
T1F9F8 001:012.884 JLINK_HasError()
T1F9F8 001:014.500 JLINK_IsHalted()
T1F9F8 001:014.821 - 0.320ms returns FALSE
T1F9F8 001:014.828 JLINK_HasError()
T1F9F8 001:016.451 JLINK_IsHalted()
T1F9F8 001:016.711 - 0.260ms returns FALSE
T1F9F8 001:016.718 JLINK_HasError()
T1F9F8 001:018.558 JLINK_IsHalted()
T1F9F8 001:018.864 - 0.307ms returns FALSE
T1F9F8 001:018.872 JLINK_HasError()
T1F9F8 001:020.451 JLINK_IsHalted()
T1F9F8 001:020.713 - 0.261ms returns FALSE
T1F9F8 001:020.720 JLINK_HasError()
T1F9F8 001:022.464 JLINK_IsHalted()
T1F9F8 001:022.772 - 0.308ms returns FALSE
T1F9F8 001:022.780 JLINK_HasError()
T1F9F8 001:024.519 JLINK_IsHalted()
T1F9F8 001:024.835 - 0.317ms returns FALSE
T1F9F8 001:024.842 JLINK_HasError()
T1F9F8 001:026.466 JLINK_IsHalted()
T1F9F8 001:026.771 - 0.305ms returns FALSE
T1F9F8 001:026.786 JLINK_HasError()
T1F9F8 001:030.490 JLINK_IsHalted()
T1F9F8 001:030.806 - 0.315ms returns FALSE
T1F9F8 001:030.824 JLINK_HasError()
T1F9F8 001:032.450 JLINK_IsHalted()
T1F9F8 001:032.767 - 0.316ms returns FALSE
T1F9F8 001:032.783 JLINK_HasError()
T1F9F8 001:034.538 JLINK_IsHalted()
T1F9F8 001:034.910 - 0.371ms returns FALSE
T1F9F8 001:034.929 JLINK_HasError()
T1F9F8 001:036.546 JLINK_IsHalted()
T1F9F8 001:036.904 - 0.357ms returns FALSE
T1F9F8 001:036.921 JLINK_HasError()
T1F9F8 001:038.475 JLINK_IsHalted()
T1F9F8 001:038.770 - 0.295ms returns FALSE
T1F9F8 001:038.787 JLINK_HasError()
T1F9F8 001:040.482 JLINK_IsHalted()
T1F9F8 001:040.862 - 0.380ms returns FALSE
T1F9F8 001:040.870 JLINK_HasError()
T1F9F8 001:042.559 JLINK_IsHalted()
T1F9F8 001:042.916 - 0.359ms returns FALSE
T1F9F8 001:042.926 JLINK_HasError()
T1F9F8 001:044.508 JLINK_IsHalted()
T1F9F8 001:044.847 - 0.340ms returns FALSE
T1F9F8 001:044.862 JLINK_HasError()
T1F9F8 001:046.459 JLINK_IsHalted()
T1F9F8 001:046.756 - 0.297ms returns FALSE
T1F9F8 001:046.770 JLINK_HasError()
T1F9F8 001:048.500 JLINK_IsHalted()
T1F9F8 001:048.846 - 0.345ms returns FALSE
T1F9F8 001:048.853 JLINK_HasError()
T1F9F8 001:050.980 JLINK_IsHalted()
T1F9F8 001:051.273 - 0.292ms returns FALSE
T1F9F8 001:051.280 JLINK_HasError()
T1F9F8 001:053.066 JLINK_IsHalted()
T1F9F8 001:053.366 - 0.301ms returns FALSE
T1F9F8 001:053.373 JLINK_HasError()
T1F9F8 001:055.039 JLINK_IsHalted()
T1F9F8 001:055.423 - 0.384ms returns FALSE
T1F9F8 001:055.431 JLINK_HasError()
T1F9F8 001:056.991 JLINK_IsHalted()
T1F9F8 001:060.522 - 3.531ms returns TRUE
T1F9F8 001:060.543 JLINK_ReadReg(R15 (PC))
T1F9F8 001:060.552   CPU_ReadMem(4 bytes @ 0xE000EE08)
T1F9F8 001:060.837 - 0.293ms returns 0x22000000
T1F9F8 001:060.844 JLINK_ClrBPEx(BPHandle = 0x00000003)
T1F9F8 001:060.848 - 0.004ms returns 0x00
T1F9F8 001:060.853 JLINK_ReadReg(R0)
T1F9F8 001:060.857 - 0.004ms returns 0x00000000
T1F9F8 001:061.168 JLINK_HasError()
T1F9F8 001:061.177 JLINK_WriteReg(R0, 0x00000001)
T1F9F8 001:061.187 - 0.009ms returns 0
T1F9F8 001:061.191 JLINK_WriteReg(R1, 0x00008000)
T1F9F8 001:061.195 - 0.003ms returns 0
T1F9F8 001:061.199 JLINK_WriteReg(R2, 0x000000FF)
T1F9F8 001:061.202 - 0.003ms returns 0
T1F9F8 001:061.206 JLINK_WriteReg(R3, 0x00000000)
T1F9F8 001:061.210 - 0.003ms returns 0
T1F9F8 001:061.214 JLINK_WriteReg(R4, 0x00000000)
T1F9F8 001:061.217 - 0.003ms returns 0
T1F9F8 001:061.221 JLINK_WriteReg(R5, 0x00000000)
T1F9F8 001:061.225 - 0.003ms returns 0
T1F9F8 001:061.229 JLINK_WriteReg(R6, 0x00000000)
T1F9F8 001:061.232 - 0.003ms returns 0
T1F9F8 001:061.236 JLINK_WriteReg(R7, 0x00000000)
T1F9F8 001:061.240 - 0.004ms returns 0
T1F9F8 001:061.244 JLINK_WriteReg(R8, 0x00000000)
T1F9F8 001:061.248 - 0.003ms returns 0
T1F9F8 001:061.252 JLINK_WriteReg(R9, 0x22001268)
T1F9F8 001:061.255 - 0.003ms returns 0
T1F9F8 001:061.259 JLINK_WriteReg(R10, 0x00000000)
T1F9F8 001:061.263 - 0.003ms returns 0
T1F9F8 001:061.267 JLINK_WriteReg(R11, 0x00000000)
T1F9F8 001:061.270 - 0.003ms returns 0
T1F9F8 001:061.274 JLINK_WriteReg(R12, 0x00000000)
T1F9F8 001:061.278 - 0.003ms returns 0
T1F9F8 001:061.282 JLINK_WriteReg(R13 (SP), 0x22007800)
T1F9F8 001:061.286 - 0.004ms returns 0
T1F9F8 001:061.290 JLINK_WriteReg(R14, 0x22000001)
T1F9F8 001:061.293 - 0.003ms returns 0
T1F9F8 001:061.297 JLINK_WriteReg(R15 (PC), 0x22000F38)
T1F9F8 001:061.301 - 0.003ms returns 0
T1F9F8 001:061.305 JLINK_WriteReg(XPSR, 0x01000000)
T1F9F8 001:061.309 - 0.003ms returns 0
T1F9F8 001:061.312 JLINK_WriteReg(MSP, 0x22007800)
T1F9F8 001:061.316 - 0.003ms returns 0
T1F9F8 001:061.321 JLINK_WriteReg(PSP, 0x22007800)
T1F9F8 001:061.325 - 0.003ms returns 0
T1F9F8 001:061.329 JLINK_WriteReg(CFBP, 0x00000000)
T1F9F8 001:061.333 - 0.003ms returns 0
T1F9F8 001:061.337 JLINK_SetBPEx(Addr = 0x22000000, Type = 0xFFFFFFF2)
T1F9F8 001:061.342 - 0.005ms returns 0x00000004
T1F9F8 001:061.346 JLINK_Go()
T1F9F8 001:061.353   CPU_WriteMem(4 bytes @ 0xE0002000)
T1F9F8 001:061.735   CPU_ReadMem(4 bytes @ 0xE0001000)
T1F9F8 001:064.723 - 3.376ms
T1F9F8 001:064.737 JLINK_IsHalted()
T1F9F8 001:068.223 - 3.485ms returns TRUE
T1F9F8 001:068.233 JLINK_ReadReg(R15 (PC))
T1F9F8 001:068.240   CPU_ReadMem(4 bytes @ 0xE000EE08)
T1F9F8 001:068.606 - 0.373ms returns 0x22000000
T1F9F8 001:068.613 JLINK_ClrBPEx(BPHandle = 0x00000004)
T1F9F8 001:068.618 - 0.004ms returns 0x00
T1F9F8 001:068.622 JLINK_ReadReg(R0)
T1F9F8 001:068.626 - 0.004ms returns 0x00000000
T1F9F8 001:070.654 JLINK_WriteMem(0x22000000, 0xDA0 Bytes, ...)
T1F9F8 001:070.663   Data:  00 BE 0A E0 0D 78 2D 06 68 40 08 24 40 00 00 D3 ...
T1F9F8 001:070.678   CPU_WriteMem(3488 bytes @ 0x22000000)
T1F9F8 001:089.957 - 19.302ms returns 0xDA0
T1F9F8 001:090.017 JLINK_HasError()
T1F9F8 001:090.346 JLINK_WriteReg(R0, 0x02C9F040)
T1F9F8 001:090.356 - 0.009ms returns 0
T1F9F8 001:090.364 JLINK_WriteReg(R1, 0x00B71B00)
T1F9F8 001:090.368 - 0.004ms returns 0
T1F9F8 001:090.372 JLINK_WriteReg(R2, 0x00000001)
T1F9F8 001:090.375 - 0.003ms returns 0
T1F9F8 001:090.379 JLINK_WriteReg(R3, 0x00000000)
T1F9F8 001:090.382 - 0.003ms returns 0
T1F9F8 001:090.386 JLINK_WriteReg(R4, 0x00000000)
T1F9F8 001:090.389 - 0.003ms returns 0
T1F9F8 001:090.393 JLINK_WriteReg(R5, 0x00000000)
T1F9F8 001:090.397 - 0.003ms returns 0
T1F9F8 001:090.405 JLINK_WriteReg(R6, 0x00000000)
T1F9F8 001:090.411 - 0.005ms returns 0
T1F9F8 001:090.414 JLINK_WriteReg(R7, 0x00000000)
T1F9F8 001:090.418 - 0.003ms returns 0
T1F9F8 001:090.422 JLINK_WriteReg(R8, 0x00000000)
T1F9F8 001:090.425 - 0.003ms returns 0
T1F9F8 001:090.429 JLINK_WriteReg(R9, 0x22000D08)
T1F9F8 001:090.432 - 0.003ms returns 0
T1F9F8 001:090.436 JLINK_WriteReg(R10, 0x00000000)
T1F9F8 001:090.439 - 0.003ms returns 0
T1F9F8 001:090.444 JLINK_WriteReg(R11, 0x00000000)
T1F9F8 001:090.447 - 0.003ms returns 0
T1F9F8 001:090.451 JLINK_WriteReg(R12, 0x00000000)
T1F9F8 001:090.454 - 0.003ms returns 0
T1F9F8 001:090.458 JLINK_WriteReg(R13 (SP), 0x22007800)
T1F9F8 001:090.463 - 0.004ms returns 0
T1F9F8 001:090.466 JLINK_WriteReg(R14, 0x22000001)
T1F9F8 001:090.470 - 0.003ms returns 0
T1F9F8 001:090.474 JLINK_WriteReg(R15 (PC), 0x220000E0)
T1F9F8 001:090.477 - 0.003ms returns 0
T1F9F8 001:090.481 JLINK_WriteReg(XPSR, 0x01000000)
T1F9F8 001:090.484 - 0.003ms returns 0
T1F9F8 001:090.488 JLINK_WriteReg(MSP, 0x22007800)
T1F9F8 001:090.491 - 0.003ms returns 0
T1F9F8 001:090.495 JLINK_WriteReg(PSP, 0x22007800)
T1F9F8 001:090.499 - 0.003ms returns 0
T1F9F8 001:090.502 JLINK_WriteReg(CFBP, 0x00000000)
T1F9F8 001:090.506 - 0.003ms returns 0
T1F9F8 001:090.510 JLINK_SetBPEx(Addr = 0x22000000, Type = 0xFFFFFFF2)
T1F9F8 001:090.515 - 0.004ms returns 0x00000005
T1F9F8 001:090.519 JLINK_Go()
T1F9F8 001:090.525   CPU_WriteMem(4 bytes @ 0xE0002000)
T1F9F8 001:090.859   CPU_ReadMem(4 bytes @ 0xE0001000)
T1F9F8 001:093.920 - 3.400ms
T1F9F8 001:093.959 JLINK_IsHalted()
T1F9F8 001:097.526 - 3.565ms returns TRUE
T1F9F8 001:097.605 JLINK_ReadReg(R15 (PC))
T1F9F8 001:097.627   CPU_ReadMem(4 bytes @ 0xE000EE08)
T1F9F8 001:097.938 - 0.335ms returns 0x22000000
T1F9F8 001:097.944 JLINK_ClrBPEx(BPHandle = 0x00000005)
T1F9F8 001:097.948 - 0.003ms returns 0x00
T1F9F8 001:097.953 JLINK_ReadReg(R0)
T1F9F8 001:097.956 - 0.003ms returns 0x00000000
T1F9F8 001:098.182 JLINK_HasError()
T1F9F8 001:098.189 JLINK_WriteReg(R0, 0x02C9F040)
T1F9F8 001:098.194 - 0.004ms returns 0
T1F9F8 001:098.198 JLINK_WriteReg(R1, 0x00000010)
T1F9F8 001:098.203 - 0.004ms returns 0
T1F9F8 001:098.206 JLINK_WriteReg(R2, 0x000000FF)
T1F9F8 001:098.210 - 0.003ms returns 0
T1F9F8 001:098.214 JLINK_WriteReg(R3, 0x00000000)
T1F9F8 001:098.217 - 0.003ms returns 0
T1F9F8 001:098.221 JLINK_WriteReg(R4, 0x00000000)
T1F9F8 001:098.224 - 0.003ms returns 0
T1F9F8 001:098.228 JLINK_WriteReg(R5, 0x00000000)
T1F9F8 001:098.231 - 0.003ms returns 0
T1F9F8 001:098.235 JLINK_WriteReg(R6, 0x00000000)
T1F9F8 001:098.238 - 0.003ms returns 0
T1F9F8 001:098.242 JLINK_WriteReg(R7, 0x00000000)
T1F9F8 001:098.246 - 0.004ms returns 0
T1F9F8 001:098.250 JLINK_WriteReg(R8, 0x00000000)
T1F9F8 001:098.253 - 0.003ms returns 0
T1F9F8 001:098.257 JLINK_WriteReg(R9, 0x22000D08)
T1F9F8 001:098.261 - 0.003ms returns 0
T1F9F8 001:098.264 JLINK_WriteReg(R10, 0x00000000)
T1F9F8 001:098.268 - 0.003ms returns 0
T1F9F8 001:098.272 JLINK_WriteReg(R11, 0x00000000)
T1F9F8 001:098.275 - 0.003ms returns 0
T1F9F8 001:098.279 JLINK_WriteReg(R12, 0x00000000)
T1F9F8 001:098.282 - 0.003ms returns 0
T1F9F8 001:098.286 JLINK_WriteReg(R13 (SP), 0x22007800)
T1F9F8 001:098.290 - 0.004ms returns 0
T1F9F8 001:098.294 JLINK_WriteReg(R14, 0x22000001)
T1F9F8 001:098.297 - 0.003ms returns 0
T1F9F8 001:098.301 JLINK_WriteReg(R15 (PC), 0x220000C8)
T1F9F8 001:098.305 - 0.003ms returns 0
T1F9F8 001:098.308 JLINK_WriteReg(XPSR, 0x01000000)
T1F9F8 001:098.312 - 0.003ms returns 0
T1F9F8 001:098.315 JLINK_WriteReg(MSP, 0x22007800)
T1F9F8 001:098.319 - 0.003ms returns 0
T1F9F8 001:098.323 JLINK_WriteReg(PSP, 0x22007800)
T1F9F8 001:098.326 - 0.003ms returns 0
T1F9F8 001:098.330 JLINK_WriteReg(CFBP, 0x00000000)
T1F9F8 001:098.333 - 0.003ms returns 0
T1F9F8 001:098.338 JLINK_SetBPEx(Addr = 0x22000000, Type = 0xFFFFFFF2)
T1F9F8 001:098.341 - 0.004ms returns 0x00000006
T1F9F8 001:098.345 JLINK_Go()
T1F9F8 001:098.350   CPU_WriteMem(4 bytes @ 0xE0002000)
T1F9F8 001:098.776   CPU_ReadMem(4 bytes @ 0xE0001000)
T1F9F8 001:101.663 - 3.317ms
T1F9F8 001:101.675 JLINK_IsHalted()
T1F9F8 001:105.132 - 3.456ms returns TRUE
T1F9F8 001:105.148 JLINK_ReadReg(R15 (PC))
T1F9F8 001:105.155   CPU_ReadMem(4 bytes @ 0xE000EE08)
T1F9F8 001:105.438 - 0.289ms returns 0x22000000
T1F9F8 001:105.447 JLINK_ClrBPEx(BPHandle = 0x00000006)
T1F9F8 001:105.452 - 0.004ms returns 0x00
T1F9F8 001:105.457 JLINK_ReadReg(R0)
T1F9F8 001:105.462 - 0.004ms returns 0x00000000
T1F9F8 001:105.831 JLINK_HasError()
T1F9F8 001:105.843 JLINK_WriteReg(R0, 0x02C9F0C0)
T1F9F8 001:105.849 - 0.005ms returns 0
T1F9F8 001:105.853 JLINK_WriteReg(R1, 0x00000010)
T1F9F8 001:105.857 - 0.003ms returns 0
T1F9F8 001:105.861 JLINK_WriteReg(R2, 0x000000FF)
T1F9F8 001:105.864 - 0.003ms returns 0
T1F9F8 001:105.868 JLINK_WriteReg(R3, 0x00000000)
T1F9F8 001:105.872 - 0.003ms returns 0
T1F9F8 001:105.876 JLINK_WriteReg(R4, 0x00000000)
T1F9F8 001:105.880 - 0.003ms returns 0
T1F9F8 001:105.884 JLINK_WriteReg(R5, 0x00000000)
T1F9F8 001:105.887 - 0.003ms returns 0
T1F9F8 001:105.891 JLINK_WriteReg(R6, 0x00000000)
T1F9F8 001:105.894 - 0.003ms returns 0
T1F9F8 001:105.898 JLINK_WriteReg(R7, 0x00000000)
T1F9F8 001:105.902 - 0.003ms returns 0
T1F9F8 001:105.906 JLINK_WriteReg(R8, 0x00000000)
T1F9F8 001:105.909 - 0.003ms returns 0
T1F9F8 001:105.913 JLINK_WriteReg(R9, 0x22000D08)
T1F9F8 001:105.917 - 0.003ms returns 0
T1F9F8 001:105.921 JLINK_WriteReg(R10, 0x00000000)
T1F9F8 001:105.924 - 0.003ms returns 0
T1F9F8 001:105.931 JLINK_WriteReg(R11, 0x00000000)
T1F9F8 001:105.934 - 0.003ms returns 0
T1F9F8 001:105.938 JLINK_WriteReg(R12, 0x00000000)
T1F9F8 001:105.942 - 0.003ms returns 0
T1F9F8 001:105.946 JLINK_WriteReg(R13 (SP), 0x22007800)
T1F9F8 001:105.951 - 0.004ms returns 0
T1F9F8 001:105.955 JLINK_WriteReg(R14, 0x22000001)
T1F9F8 001:105.959 - 0.003ms returns 0
T1F9F8 001:105.963 JLINK_WriteReg(R15 (PC), 0x220000C8)
T1F9F8 001:105.967 - 0.003ms returns 0
T1F9F8 001:105.971 JLINK_WriteReg(XPSR, 0x01000000)
T1F9F8 001:105.975 - 0.004ms returns 0
T1F9F8 001:105.979 JLINK_WriteReg(MSP, 0x22007800)
T1F9F8 001:105.982 - 0.003ms returns 0
T1F9F8 001:105.987 JLINK_WriteReg(PSP, 0x22007800)
T1F9F8 001:105.990 - 0.003ms returns 0
T1F9F8 001:105.994 JLINK_WriteReg(CFBP, 0x00000000)
T1F9F8 001:105.998 - 0.003ms returns 0
T1F9F8 001:106.003 JLINK_SetBPEx(Addr = 0x22000000, Type = 0xFFFFFFF2)
T1F9F8 001:106.007 - 0.004ms returns 0x00000007
T1F9F8 001:106.011 JLINK_Go()
T1F9F8 001:106.016   CPU_WriteMem(4 bytes @ 0xE0002000)
T1F9F8 001:106.414   CPU_ReadMem(4 bytes @ 0xE0001000)
T1F9F8 001:109.607 - 3.594ms
T1F9F8 001:109.669 JLINK_IsHalted()
T1F9F8 001:113.257 - 3.591ms returns TRUE
T1F9F8 001:113.271 JLINK_ReadReg(R15 (PC))
T1F9F8 001:113.277   CPU_ReadMem(4 bytes @ 0xE000EE08)
T1F9F8 001:113.580 - 0.308ms returns 0x22000000
T1F9F8 001:113.589 JLINK_ClrBPEx(BPHandle = 0x00000007)
T1F9F8 001:113.593 - 0.004ms returns 0x00
T1F9F8 001:113.597 JLINK_ReadReg(R0)
T1F9F8 001:113.602 - 0.004ms returns 0x00000000
T1F9F8 001:113.940 JLINK_HasError()
T1F9F8 001:113.949 JLINK_WriteReg(R0, 0x02C9F120)
T1F9F8 001:113.955 - 0.005ms returns 0
T1F9F8 001:113.959 JLINK_WriteReg(R1, 0x00000010)
T1F9F8 001:113.965 - 0.006ms returns 0
T1F9F8 001:113.969 JLINK_WriteReg(R2, 0x000000FF)
T1F9F8 001:113.973 - 0.003ms returns 0
T1F9F8 001:113.977 JLINK_WriteReg(R3, 0x00000000)
T1F9F8 001:113.981 - 0.003ms returns 0
T1F9F8 001:113.985 JLINK_WriteReg(R4, 0x00000000)
T1F9F8 001:113.989 - 0.003ms returns 0
T1F9F8 001:113.993 JLINK_WriteReg(R5, 0x00000000)
T1F9F8 001:113.997 - 0.003ms returns 0
T1F9F8 001:114.001 JLINK_WriteReg(R6, 0x00000000)
T1F9F8 001:114.005 - 0.003ms returns 0
T1F9F8 001:114.009 JLINK_WriteReg(R7, 0x00000000)
T1F9F8 001:114.012 - 0.003ms returns 0
T1F9F8 001:114.016 JLINK_WriteReg(R8, 0x00000000)
T1F9F8 001:114.020 - 0.003ms returns 0
T1F9F8 001:114.027 JLINK_WriteReg(R9, 0x22000D08)
T1F9F8 001:114.030 - 0.003ms returns 0
T1F9F8 001:114.035 JLINK_WriteReg(R10, 0x00000000)
T1F9F8 001:114.043 - 0.008ms returns 0
T1F9F8 001:114.049 JLINK_WriteReg(R11, 0x00000000)
T1F9F8 001:114.053 - 0.003ms returns 0
T1F9F8 001:114.057 JLINK_WriteReg(R12, 0x00000000)
T1F9F8 001:114.060 - 0.003ms returns 0
T1F9F8 001:114.069 JLINK_WriteReg(R13 (SP), 0x22007800)
T1F9F8 001:114.073 - 0.005ms returns 0
T1F9F8 001:114.077 JLINK_WriteReg(R14, 0x22000001)
T1F9F8 001:114.081 - 0.003ms returns 0
T1F9F8 001:114.085 JLINK_WriteReg(R15 (PC), 0x220000C8)
T1F9F8 001:114.089 - 0.003ms returns 0
T1F9F8 001:114.093 JLINK_WriteReg(XPSR, 0x01000000)
T1F9F8 001:114.097 - 0.003ms returns 0
T1F9F8 001:114.101 JLINK_WriteReg(MSP, 0x22007800)
T1F9F8 001:114.104 - 0.003ms returns 0
T1F9F8 001:114.108 JLINK_WriteReg(PSP, 0x22007800)
T1F9F8 001:114.112 - 0.003ms returns 0
T1F9F8 001:114.116 JLINK_WriteReg(CFBP, 0x00000000)
T1F9F8 001:114.120 - 0.003ms returns 0
T1F9F8 001:114.124 JLINK_SetBPEx(Addr = 0x22000000, Type = 0xFFFFFFF2)
T1F9F8 001:114.129 - 0.004ms returns 0x00000008
T1F9F8 001:114.133 JLINK_Go()
T1F9F8 001:114.138   CPU_WriteMem(4 bytes @ 0xE0002000)
T1F9F8 001:114.521   CPU_ReadMem(4 bytes @ 0xE0001000)
T1F9F8 001:118.044 - 3.910ms
T1F9F8 001:118.431 JLINK_IsHalted()
T1F9F8 001:121.842 - 3.410ms returns TRUE
T1F9F8 001:121.849 JLINK_ReadReg(R15 (PC))
T1F9F8 001:121.855   CPU_ReadMem(4 bytes @ 0xE000EE08)
T1F9F8 001:122.166 - 0.317ms returns 0x22000000
T1F9F8 001:122.173 JLINK_ClrBPEx(BPHandle = 0x00000008)
T1F9F8 001:122.177 - 0.004ms returns 0x00
T1F9F8 001:122.181 JLINK_ReadReg(R0)
T1F9F8 001:122.186 - 0.004ms returns 0x00000000
T1F9F8 001:122.397 JLINK_HasError()
T1F9F8 001:122.403 JLINK_WriteReg(R0, 0x00000001)
T1F9F8 001:122.408 - 0.004ms returns 0
T1F9F8 001:122.412 JLINK_WriteReg(R1, 0x00000010)
T1F9F8 001:122.416 - 0.003ms returns 0
T1F9F8 001:122.420 JLINK_WriteReg(R2, 0x000000FF)
T1F9F8 001:122.423 - 0.003ms returns 0
